T2A48 17687:154 SEGGER J-Link V6.34e Log File (0000ms, 1246026ms total)
T2A48 17687:154 DLL Compiled: Aug 30 2018 17:36:45 (0000ms, 1246026ms total)
T2A48 17687:154 Logging started @ 2020-01-07 20:04 (0000ms, 1246026ms total)
T2A48 17687:154 JLINK_SetWarnOutHandler(...) (0000ms, 1246026ms total)
T2A48 17687:154 JLINK_OpenEx(...)
Firmware: J-Link OB-STM32F072-CortexM compiled May  4 2017 14:44:00
Hardware: V1.00
Feature(s): GDB, RDI, FlashBP, FlashDL, JFlash, RDDI
TELNET listener socket opened on port 19021Device "STM32F407ZE" selected.WEBSRV 
Starting webserver (0023ms, 1246049ms total)
T2A48 17687:154 WEBSRV Webserver running on local port 19080 (0023ms, 1246049ms total)
T2A48 17687:154   returns O.K. (0023ms, 1246049ms total)
T2A48 17687:177 JLINK_GetEmuCaps()  returns 0xB8EA5A33 (0001ms, 1246050ms total)
T2A48 17687:178 JLINK_TIF_GetAvailable(...) (0001ms, 1246051ms total)
T2A48 17687:179 JLINK_SetErrorOutHandler(...) (0000ms, 1246051ms total)
T2A48 17687:179 JLINK_ExecCommand("ProjectFile = "C:\Users\Administrator\Desktop\路径规划算法\STM32\IGK-AGV-STM32\USER\JLinkSettings.ini"", ...). Device "STM32F407ZE" selected.  returns 0x00 (0003ms, 1246054ms total)
T2A48 17687:182 JLINK_ExecCommand("Device = STM32F407ZGTx", ...). Device "STM32F407ZE" selected.  returns 0x00 (0001ms, 1246055ms total)
T2A48 17687:183 JLINK_ExecCommand("DisableConnectionTimeout", ...).   returns 0x01 (0000ms, 1246055ms total)
T2A48 17687:183 JLINK_GetHardwareVersion()  returns 0x2710 (0000ms, 1246055ms total)
T2A48 17687:183 JLINK_GetDLLVersion()  returns 63405 (0000ms, 1246055ms total)
T2A48 17687:183 JLINK_GetFirmwareString(...) (0000ms, 1246055ms total)
T2A48 17687:183 JLINK_GetDLLVersion()  returns 63405 (0000ms, 1246055ms total)
T2A48 17687:183 JLINK_GetCompileDateTime() (0000ms, 1246055ms total)
T2A48 17687:183 JLINK_GetFirmwareString(...) (0000ms, 1246055ms total)
T2A48 17687:183 JLINK_GetHardwareVersion()  returns 0x2710 (0000ms, 1246055ms total)
T2A48 17687:183 JLINK_TIF_Select(JLINKARM_TIF_SWD)  returns 0x00 (0002ms, 1246057ms total)
T2A48 17687:185 JLINK_SetSpeed(5000) (0001ms, 1246058ms total)
T2A48 17687:186 JLINK_GetId() >0x10B TIF>Found SW-DP with ID 0x2BA01477 >0x0D TIF> >0x28 TIF> >0x0D TIF> >0x28 TIF> >0x0D TIF> >0x28 TIF> >0x0D TIF> >0x28 TIF> >0x0D TIF> >0x21 TIF> >0x0D TIF> >0x28 TIF> >0x0D TIF> >0x28 TIF> >0x0D TIF> >0x28 TIF> >0x0D TIF> >0x21 TIF> >0x0D TIF> >0x21 TIF> >0x0D TIF> >0x28 TIF> >0x0D TIF> >0x21 TIF> >0x0D TIF> >0x21 TIF> >0x0D TIF> >0x28 TIF> >0x0D TIF> >0x21 TIF> >0x0D TIF> >0x21 TIF> >0x0D TIF> >0x28 TIF> >0x0D TIF> >0x21 TIF> >0x0D TIF> >0x21 TIF> >0x0D TIF>
 >0x28 TIF> >0x0D TIF> >0x21 TIF> >0x0D TIF> >0x21 TIF> >0x0D TIF> >0x28 TIF> >0x0D TIF> >0x21 TIF> >0x0D TIF> >0x21 TIF> >0x10B TIF>Found SW-DP with ID 0x2BA01477 >0x0D TIF> >0x28 TIF> >0x0D TIF> >0x28 TIF> >0x0D TIF> >0x28 TIF> >0x0D TIF> >0x28 TIF> >0x0D TIF> >0x21 TIF> >0x0D TIF> >0x28 TIF>Scanning AP map to find all available APs >0x0D TIF> >0x28 TIF> >0x0D TIF> >0x21 TIF> >0x0D TIF> >0x21 TIF> >0x0D TIF> >0x28 TIF> >0x0D TIF> >0x21 TIF> >0x0D TIF> >0x21 TIF>
AP[1]: Stopped AP scan as end of AP map has been reachedAP[0]: AHB-AP (IDR: 0x24770011)Iterating through AP map to find AHB-AP to use >0x42 TIF> >0x28 TIF> >0x0D TIF> >0x28 TIF> >0x0D TIF> >0x21 TIF> >0x0D TIF> >0x21 TIF> >0x42 TIF> >0x28 TIF> >0x0D TIF> >0x28 TIF> >0x0D TIF> >0x28 TIF> >0x0D TIF> >0x21 TIF> >0x0D TIF> >0x21 TIF>AP[0]: Core foundAP[0]: AHB-AP ROM base: 0xE00FF000 >0x0D TIF> >0x28 TIF> >0x0D TIF> >0x28 TIF> >0x0D TIF> >0x28 TIF> >0x0D TIF> >0x21 TIF> >0x0D TIF> >0x21 TIF>
CPUID register: 0x410FC241. Implementer code: 0x41 (ARM)Found Cortex-M4 r0p1, Little endian. -- Max. mem block: 0x00002040 -- CPU_ReadMem(4 bytes @ 0xE000EDF0) -- CPU_WriteMem(4 bytes @ 0xE000EDF0) -- CPU_ReadMem(4 bytes @ 0xE0002000)FPUnit: 6 code (BP) slots and 2 literal slots -- CPU_ReadMem(4 bytes @ 0xE000EDFC) -- CPU_WriteMem(4 bytes @ 0xE000EDFC) -- CPU_ReadMem(4 bytes @ 0xE0001000) -- CPU_WriteMem(4 bytes @ 0xE0001000) -- CPU_ReadMem(4 bytes @ 0xE000ED88) -- CPU_WriteMem(4 bytes @ 0xE000ED88)
 -- CPU_ReadMem(4 bytes @ 0xE000ED88) -- CPU_WriteMem(4 bytes @ 0xE000ED88)CoreSight components:ROMTbl[0] @ E00FF000 -- CPU_ReadMem(16 bytes @ 0xE00FF000) -- CPU_ReadMem(16 bytes @ 0xE000EFF0) -- CPU_ReadMem(16 bytes @ 0xE000EFE0)ROMTbl[0][0]: E000E000, CID: B105E00D, PID: 000BB00C SCS-M7 -- CPU_ReadMem(16 bytes @ 0xE0001FF0) -- CPU_ReadMem(16 bytes @ 0xE0001FE0)ROMTbl[0][1]: E0001000, CID: B105E00D, PID: 003BB002 DWT -- CPU_ReadMem(16 bytes @ 0xE0002FF0) -- CPU_ReadMem(16 bytes @ 0xE0002FE0)
ROMTbl[0][2]: E0002000, CID: B105E00D, PID: 002BB003 FPB -- CPU_ReadMem(16 bytes @ 0xE0000FF0) -- CPU_ReadMem(16 bytes @ 0xE0000FE0)ROMTbl[0][3]: E0000000, CID: B105E00D, PID: 003BB001 ITM -- CPU_ReadMem(16 bytes @ 0xE00FF010) -- CPU_ReadMem(16 bytes @ 0xE0040FF0) -- CPU_ReadMem(16 bytes @ 0xE0040FE0)ROMTbl[0][4]: E0040000, CID: B105900D, PID: 000BB9A1 TPIU -- CPU_ReadMem(16 bytes @ 0xE0041FF0) -- CPU_ReadMem(16 bytes @ 0xE0041FE0)ROMTbl[0][5]: E0041000, CID: B105900D, PID: 000BB925 ETM >0x0D TIF>
 >0x21 TIF>  returns 0x2BA01477 (0189ms, 1246247ms total)
T2A48 17687:375 JLINK_GetDLLVersion()  returns 63405 (0000ms, 1246247ms total)
T2A48 17687:375 JLINK_CORE_GetFound()  returns 0xE0000FF (0000ms, 1246247ms total)
T2A48 17687:375 JLINK_GetDebugInfo(0x100 = JLINKARM_ROM_TABLE_ADDR_INDEX) -- Value=0xE00FF000  returns 0x00 (0000ms, 1246247ms total)
T2A48 17687:375 JLINK_GetDebugInfo(0x100 = JLINKARM_ROM_TABLE_ADDR_INDEX) -- Value=0xE00FF000  returns 0x00 (0000ms, 1246247ms total)
T2A48 17687:375 JLINK_GetDebugInfo(0x101 = JLINKARM_DEBUG_INFO_ETM_ADDR_INDEX) -- Value=0xE0041000  returns 0x00 (0000ms, 1246247ms total)
T2A48 17687:375 JLINK_ReadMemEx(0xE0041FD0, 0x0020 Bytes, ..., Flags = 0x02000004) -- CPU_ReadMem(32 bytes @ 0xE0041FD0) - Data: 04 00 00 00 00 00 00 00 00 00 00 00 00 00 00 00 ...  returns 0x20 (0001ms, 1246248ms total)
T2A48 17687:376 JLINK_GetDebugInfo(0x102 = JLINKARM_DEBUG_INFO_MTB_ADDR_INDEX) -- Value=0x00000000  returns 0x00 (0000ms, 1246248ms total)
T2A48 17687:376 JLINK_GetDebugInfo(0x103 = JLINKARM_DEBUG_INFO_TPIU_ADDR_INDEX) -- Value=0xE0040000  returns 0x00 (0000ms, 1246248ms total)
T2A48 17687:376 JLINK_GetDebugInfo(0x104 = JLINKARM_DEBUG_INFO_ITM_ADDR_INDEX) -- Value=0xE0000000  returns 0x00 (0000ms, 1246248ms total)
T2A48 17687:376 JLINK_GetDebugInfo(0x105 = JLINKARM_DEBUG_INFO_DWT_ADDR_INDEX) -- Value=0xE0001000  returns 0x00 (0000ms, 1246248ms total)
T2A48 17687:376 JLINK_GetDebugInfo(0x106 = JLINKARM_DEBUG_INFO_FPB_ADDR_INDEX) -- Value=0xE0002000  returns 0x00 (0000ms, 1246248ms total)
T2A48 17687:376 JLINK_GetDebugInfo(0x107 = JLINKARM_DEBUG_INFO_NVIC_ADDR_INDEX) -- Value=0xE000E000  returns 0x00 (0000ms, 1246248ms total)
T2A48 17687:376 JLINK_GetDebugInfo(0x10C = JLINKARM_DEBUG_INFO_DBG_ADDR_INDEX) -- Value=0xE000EDF0  returns 0x00 (0000ms, 1246248ms total)
T2A48 17687:376 JLINK_GetDebugInfo(0x01 = Unknown) -- Value=0x00000001  returns 0x00 (0000ms, 1246248ms total)
T2A48 17687:376 JLINK_ReadMemU32(0xE000ED00, 0x0001 Items, ...) -- CPU_ReadMem(4 bytes @ 0xE000ED00) - Data: 41 C2 0F 41  returns 1 (0001ms, 1246249ms total)
T2A48 17687:377 JLINK_GetDebugInfo(0x10F = JLINKARM_DEBUG_INFO_HAS_CORTEX_M_SECURITY_EXT_INDEX) -- Value=0x00000000  returns 0x00 (0000ms, 1246249ms total)
T2A48 17687:377 JLINK_SetResetType(JLINKARM_CM3_RESET_TYPE_NORMAL)  returns JLINKARM_CM3_RESET_TYPE_NORMAL (0000ms, 1246249ms total)
T2A48 17687:377 JLINK_Reset() -- CPU is running -- CPU_WriteMem(4 bytes @ 0xE000EDF0) -- CPU is running -- CPU_WriteMem(4 bytes @ 0xE000EDFC)Reset: Halt core after reset via DEMCR.VC_CORERESET. >0x35 TIF>Reset: Reset device via AIRCR.SYSRESETREQ. -- CPU is running -- CPU_WriteMem(4 bytes @ 0xE000ED0C) >0x0D TIF> >0x28 TIF> -- CPU_ReadMem(4 bytes @ 0xE000EDF0) -- CPU_ReadMem(4 bytes @ 0xE000EDF0) -- CPU is running -- CPU_WriteMem(4 bytes @ 0xE000EDF0) -- CPU is running
 -- CPU_WriteMem(4 bytes @ 0xE000EDFC) -- CPU_ReadMem(4 bytes @ 0xE000EDF0) -- CPU_WriteMem(4 bytes @ 0xE0002000) -- CPU_ReadMem(4 bytes @ 0xE000EDFC) -- CPU_ReadMem(4 bytes @ 0xE0001000) (0073ms, 1246322ms total)
T2A48 17687:450 JLINK_ReadReg(R15 (PC))  returns 0x0800019C (0000ms, 1246322ms total)
T2A48 17687:450 JLINK_ReadReg(XPSR)  returns 0x01000000 (0000ms, 1246322ms total)
T2A48 17687:450 JLINK_Halt()  returns 0x00 (0000ms, 1246322ms total)
T2A48 17687:450 JLINK_ReadMemU32(0xE000EDF0, 0x0001 Items, ...) -- CPU_ReadMem(4 bytes @ 0xE000EDF0) - Data: 03 00 03 00  returns 1 (0001ms, 1246323ms total)
T2A48 17687:451 JLINK_WriteU32(0xE000EDF0, 0xA05F0003) -- CPU_WriteMem(4 bytes @ 0xE000EDF0)  returns 0 (0000ms, 1246323ms total)
T2A48 17687:451 JLINK_WriteU32(0xE000EDFC, 0x01000000) -- CPU_WriteMem(4 bytes @ 0xE000EDFC)  returns 0 (0001ms, 1246324ms total)
T2A48 17687:452 JLINK_GetHWStatus(...)  returns 0x00 (0001ms, 1246325ms total)
T2A48 17687:453 JLINK_GetNumBPUnits(Type = 0xFFFFFF00)  returns 0x06 (0000ms, 1246325ms total)
T2A48 17687:453 JLINK_GetNumBPUnits(Type = 0xF0)  returns 0x2000 (0000ms, 1246325ms total)
T2A48 17687:453 JLINK_GetNumWPUnits()  returns 0x04 (0000ms, 1246325ms total)
T2A48 17687:453 JLINK_GetSpeed()  returns 0x7D0 (0000ms, 1246325ms total)
T2A48 17687:453 JLINK_ReadMemU32(0xE000E004, 0x0001 Items, ...) -- CPU_ReadMem(4 bytes @ 0xE000E004) - Data: 02 00 00 00  returns 1 (0001ms, 1246326ms total)
T2A48 17687:454 JLINK_ReadMemU32(0xE000E004, 0x0001 Items, ...) -- CPU_ReadMem(4 bytes @ 0xE000E004) - Data: 02 00 00 00  returns 1 (0001ms, 1246327ms total)
T2A48 17687:455 JLINK_WriteMemEx(0xE0001000, 0x001C Bytes, ..., Flags = 0x02000004) - Data: 01 00 00 00 00 00 00 00 00 00 00 00 00 00 00 00 ... -- CPU_WriteMem(28 bytes @ 0xE0001000)  returns 0x1C (0001ms, 1246328ms total)
T2A48 17687:456 JLINK_ReadReg(R15 (PC))  returns 0x0800019C (0000ms, 1246328ms total)
T2A48 17687:456 JLINK_ReadReg(XPSR)  returns 0x01000000 (0000ms, 1246328ms total)
T2A48 17687:544 JLINK_SetResetType(JLINKARM_CM3_RESET_TYPE_NORMAL)  returns JLINKARM_CM3_RESET_TYPE_NORMAL (0001ms, 1246329ms total)
T2A48 17687:545 JLINK_Reset() -- CPU_WriteMem(4 bytes @ 0xE000EDF0) -- CPU_WriteMem(4 bytes @ 0xE000EDFC)Reset: Halt core after reset via DEMCR.VC_CORERESET. >0x35 TIF>Reset: Reset device via AIRCR.SYSRESETREQ. -- CPU_WriteMem(4 bytes @ 0xE000ED0C) >0x0D TIF> >0x28 TIF> -- CPU_ReadMem(4 bytes @ 0xE000EDF0) -- CPU_ReadMem(4 bytes @ 0xE000EDF0) -- CPU_WriteMem(4 bytes @ 0xE000EDF0) -- CPU_WriteMem(4 bytes @ 0xE000EDFC) -- CPU_ReadMem(4 bytes @ 0xE000EDF0) -- CPU_WriteMem(4 bytes @ 0xE0002000)
 -- CPU_ReadMem(4 bytes @ 0xE000EDFC) -- CPU_ReadMem(4 bytes @ 0xE0001000) (0073ms, 1246402ms total)
T2A48 17687:618 JLINK_ReadReg(R15 (PC))  returns 0x0800019C (0000ms, 1246402ms total)
T2A48 17687:618 JLINK_ReadReg(XPSR)  returns 0x01000000 (0000ms, 1246402ms total)
T2A48 17687:895 JLINK_ReadMemEx(0x08000188, 0x003C Bytes, ..., Flags = 0x02000000) -- CPU_ReadMem(128 bytes @ 0x08000180) -- Updating C cache (128 bytes @ 0x08000180) -- Read from C cache (60 bytes @ 0x08000188) - Data: DF F8 0C D0 00 F0 22 FB 00 48 00 47 E5 AB 00 08 ...  returns 0x3C (0002ms, 1246404ms total)
T2A48 17690:614 JLINK_ReadReg(R0)  returns 0x00000000 (0001ms, 1246405ms total)
T2A48 17690:615 JLINK_ReadReg(R1)  returns 0x00000000 (0000ms, 1246405ms total)
T2A48 17690:615 JLINK_ReadReg(R2)  returns 0x00000000 (0000ms, 1246405ms total)
T2A48 17690:615 JLINK_ReadReg(R3)  returns 0x00000000 (0000ms, 1246405ms total)
T2A48 17690:615 JLINK_ReadReg(R4)  returns 0x00000000 (0000ms, 1246405ms total)
T2A48 17690:615 JLINK_ReadReg(R5)  returns 0x00000000 (0000ms, 1246405ms total)
T2A48 17690:615 JLINK_ReadReg(R6)  returns 0x00000000 (0000ms, 1246405ms total)
T2A48 17690:615 JLINK_ReadReg(R7)  returns 0x00000000 (0000ms, 1246405ms total)
T2A48 17690:615 JLINK_ReadReg(R8)  returns 0x00000000 (0000ms, 1246405ms total)
T2A48 17690:615 JLINK_ReadReg(R9)  returns 0x00000000 (0000ms, 1246405ms total)
T2A48 17690:615 JLINK_ReadReg(R10)  returns 0x00000000 (0000ms, 1246405ms total)
T2A48 17690:615 JLINK_ReadReg(R11)  returns 0x00000000 (0000ms, 1246405ms total)
T2A48 17690:615 JLINK_ReadReg(R12)  returns 0x00000000 (0000ms, 1246405ms total)
T2A48 17690:615 JLINK_ReadReg(R13 (SP))  returns 0x2000A860 (0000ms, 1246405ms total)
T2A48 17690:615 JLINK_ReadReg(R14)  returns 0xFFFFFFFF (0000ms, 1246405ms total)
T2A48 17690:615 JLINK_ReadReg(R15 (PC))  returns 0x0800019C (0000ms, 1246405ms total)
T2A48 17690:615 JLINK_ReadReg(XPSR)  returns 0x01000000 (0000ms, 1246405ms total)
T2A48 17690:615 JLINK_ReadReg(MSP)  returns 0x2000A860 (0000ms, 1246405ms total)
T2A48 17690:615 JLINK_ReadReg(PSP)  returns 0x00000000 (0000ms, 1246405ms total)
T2A48 17690:615 JLINK_ReadReg(CFBP)  returns 0x00000000 (0000ms, 1246405ms total)
T2A48 17690:615 JLINK_ReadReg(FPSCR)  returns 0x00000000 (0008ms, 1246413ms total)
T2A48 17690:623 JLINK_ReadReg(FPS0)  returns 0x00000000 (0000ms, 1246413ms total)
T2A48 17690:623 JLINK_ReadReg(FPS1)  returns 0x00000000 (0000ms, 1246413ms total)
T2A48 17690:623 JLINK_ReadReg(FPS2)  returns 0x00000000 (0000ms, 1246413ms total)
T2A48 17690:623 JLINK_ReadReg(FPS3)  returns 0x00000000 (0000ms, 1246413ms total)
T2A48 17690:623 JLINK_ReadReg(FPS4)  returns 0x00000000 (0000ms, 1246413ms total)
T2A48 17690:623 JLINK_ReadReg(FPS5)  returns 0x00000000 (0000ms, 1246413ms total)
T2A48 17690:623 JLINK_ReadReg(FPS6)  returns 0x00000000 (0000ms, 1246413ms total)
T2A48 17690:623 JLINK_ReadReg(FPS7)  returns 0x00000000 (0000ms, 1246413ms total)
T2A48 17690:623 JLINK_ReadReg(FPS8)  returns 0x00000000 (0000ms, 1246413ms total)
T2A48 17690:623 JLINK_ReadReg(FPS9)  returns 0x00000000 (0000ms, 1246413ms total)
T2A48 17690:623 JLINK_ReadReg(FPS10)  returns 0x00000000 (0000ms, 1246413ms total)
T2A48 17690:623 JLINK_ReadReg(FPS11)  returns 0x00000000 (0000ms, 1246413ms total)
T2A48 17690:623 JLINK_ReadReg(FPS12)  returns 0x00000000 (0000ms, 1246413ms total)
T2A48 17690:623 JLINK_ReadReg(FPS13)  returns 0x00000000 (0000ms, 1246413ms total)
T2A48 17690:623 JLINK_ReadReg(FPS14)  returns 0x00000000 (0000ms, 1246413ms total)
T2A48 17690:623 JLINK_ReadReg(FPS15)  returns 0x00000000 (0000ms, 1246413ms total)
T2A48 17690:623 JLINK_ReadReg(FPS16)  returns 0x00000000 (0000ms, 1246413ms total)
T2A48 17690:623 JLINK_ReadReg(FPS17)  returns 0x00000000 (0000ms, 1246413ms total)
T2A48 17690:623 JLINK_ReadReg(FPS18)  returns 0x00000000 (0000ms, 1246413ms total)
T2A48 17690:623 JLINK_ReadReg(FPS19)  returns 0x00000000 (0000ms, 1246413ms total)
T2A48 17690:623 JLINK_ReadReg(FPS20)  returns 0x00000000 (0000ms, 1246413ms total)
T2A48 17690:623 JLINK_ReadReg(FPS21)  returns 0x00000000 (0000ms, 1246413ms total)
T2A48 17690:623 JLINK_ReadReg(FPS22)  returns 0x00000000 (0000ms, 1246413ms total)
T2A48 17690:623 JLINK_ReadReg(FPS23)  returns 0x00000000 (0000ms, 1246413ms total)
T2A48 17690:623 JLINK_ReadReg(FPS24)  returns 0x00000000 (0000ms, 1246413ms total)
T2A48 17690:623 JLINK_ReadReg(FPS25)  returns 0x00000000 (0000ms, 1246413ms total)
T2A48 17690:623 JLINK_ReadReg(FPS26)  returns 0x00000000 (0000ms, 1246413ms total)
T2A48 17690:623 JLINK_ReadReg(FPS27)  returns 0x00000000 (0000ms, 1246413ms total)
T2A48 17690:623 JLINK_ReadReg(FPS28)  returns 0x00000000 (0000ms, 1246413ms total)
T2A48 17690:623 JLINK_ReadReg(FPS29)  returns 0x00000000 (0000ms, 1246413ms total)
T2A48 17690:623 JLINK_ReadReg(FPS30)  returns 0x00000000 (0000ms, 1246413ms total)
T2A48 17690:623 JLINK_ReadReg(FPS31)  returns 0x00000000 (0000ms, 1246413ms total)
T2A48 17690:634 JLINK_ReadMemEx(0x200000A0, 0x0001 Bytes, ..., Flags = 0x02000000) -- CPU_ReadMem(64 bytes @ 0x20000080) -- Updating C cache (64 bytes @ 0x20000080) -- Read from C cache (1 bytes @ 0x200000A0) - Data: 01  returns 0x01 (0001ms, 1246414ms total)
T6920 17690:670 JLINK_ReadMemEx(0x0800019C, 0x0002 Bytes, ..., Flags = 0x02000000) -- Read from C cache (2 bytes @ 0x0800019C) - Data: 06 48  returns 0x02 (0000ms, 1246414ms total)
T6920 17690:670 JLINK_SetBPEx(Addr = 0x0800ABE4, Type = 0xFFFFFFF2)  returns 0x00000001 (0000ms, 1246414ms total)
T6920 17690:670 JLINK_Go() -- CPU_WriteMem(4 bytes @ 0xE0002000) -- CPU_ReadMem(4 bytes @ 0xE0001000) -- CPU_WriteMem(4 bytes @ 0xE0002008) -- CPU_WriteMem(4 bytes @ 0xE000200C) -- CPU_WriteMem(4 bytes @ 0xE0002010) -- CPU_WriteMem(4 bytes @ 0xE0002014) -- CPU_WriteMem(4 bytes @ 0xE0002018) -- CPU_WriteMem(4 bytes @ 0xE000201C) -- CPU_WriteMem(4 bytes @ 0xE0001004) (0006ms, 1246420ms total)
T6920 17690:777 JLINK_IsHalted()  returns TRUE (0005ms, 1246425ms total)
T6920 17690:782 JLINK_Halt()  returns 0x00 (0000ms, 1246420ms total)
T6920 17690:782 JLINK_IsHalted()  returns TRUE (0000ms, 1246420ms total)
T6920 17690:782 JLINK_IsHalted()  returns TRUE (0000ms, 1246420ms total)
T6920 17690:782 JLINK_IsHalted()  returns TRUE (0000ms, 1246420ms total)
T6920 17690:782 JLINK_ReadReg(R15 (PC))  returns 0x0800ABE4 (0000ms, 1246420ms total)
T6920 17690:782 JLINK_ReadReg(XPSR)  returns 0x61000000 (0000ms, 1246420ms total)
T6920 17690:782 JLINK_ClrBPEx(BPHandle = 0x00000001)  returns 0x00 (0000ms, 1246420ms total)
T6920 17690:782 JLINK_ReadMemU32(0xE000ED30, 0x0001 Items, ...) -- CPU_ReadMem(4 bytes @ 0xE000ED30) - Data: 02 00 00 00  returns 1 (0001ms, 1246421ms total)
T6920 17690:783 JLINK_ReadMemU32(0xE0001028, 0x0001 Items, ...) -- CPU_ReadMem(4 bytes @ 0xE0001028) - Data: 00 00 00 00  returns 1 (0000ms, 1246421ms total)
T6920 17690:783 JLINK_ReadMemU32(0xE0001038, 0x0001 Items, ...) -- CPU_ReadMem(4 bytes @ 0xE0001038) - Data: 00 02 00 00  returns 1 (0001ms, 1246422ms total)
T6920 17690:784 JLINK_ReadMemU32(0xE0001048, 0x0001 Items, ...) -- CPU_ReadMem(4 bytes @ 0xE0001048) - Data: 00 00 00 00  returns 1 (0001ms, 1246423ms total)
T6920 17690:785 JLINK_ReadMemU32(0xE0001058, 0x0001 Items, ...) -- CPU_ReadMem(4 bytes @ 0xE0001058) - Data: 00 00 00 00  returns 1 (0001ms, 1246424ms total)
T6920 17690:786 JLINK_ReadReg(R0)  returns 0x0800ABE5 (0000ms, 1246424ms total)
T6920 17690:786 JLINK_ReadReg(R1)  returns 0x2000A860 (0000ms, 1246424ms total)
T6920 17690:786 JLINK_ReadReg(R2)  returns 0x00000000 (0000ms, 1246424ms total)
T6920 17690:786 JLINK_ReadReg(R3)  returns 0x0800A1CD (0000ms, 1246424ms total)
T6920 17690:786 JLINK_ReadReg(R4)  returns 0x0800B3F8 (0000ms, 1246424ms total)
T6920 17690:786 JLINK_ReadReg(R5)  returns 0x0800B3F8 (0000ms, 1246424ms total)
T6920 17690:786 JLINK_ReadReg(R6)  returns 0x00000000 (0000ms, 1246424ms total)
T6920 17690:786 JLINK_ReadReg(R7)  returns 0x00000000 (0000ms, 1246424ms total)
T6920 17690:786 JLINK_ReadReg(R8)  returns 0x00000000 (0000ms, 1246424ms total)
T6920 17690:786 JLINK_ReadReg(R9)  returns 0x00000000 (0000ms, 1246424ms total)
T6920 17690:786 JLINK_ReadReg(R10)  returns 0x00000000 (0000ms, 1246424ms total)
T6920 17690:786 JLINK_ReadReg(R11)  returns 0x00000000 (0000ms, 1246424ms total)
T6920 17690:786 JLINK_ReadReg(R12)  returns 0x00000000 (0000ms, 1246424ms total)
T6920 17690:786 JLINK_ReadReg(R13 (SP))  returns 0x2000A860 (0000ms, 1246424ms total)
T6920 17690:786 JLINK_ReadReg(R14)  returns 0x080007F1 (0000ms, 1246424ms total)
T6920 17690:786 JLINK_ReadReg(R15 (PC))  returns 0x0800ABE4 (0000ms, 1246424ms total)
T6920 17690:786 JLINK_ReadReg(XPSR)  returns 0x61000000 (0000ms, 1246424ms total)
T6920 17690:786 JLINK_ReadReg(MSP)  returns 0x2000A860 (0000ms, 1246424ms total)
T6920 17690:786 JLINK_ReadReg(PSP)  returns 0x00000000 (0000ms, 1246424ms total)
T6920 17690:786 JLINK_ReadReg(CFBP)  returns 0x00000000 (0000ms, 1246424ms total)
T6920 17690:786 JLINK_ReadReg(FPSCR)  returns 0x00000000 (0008ms, 1246432ms total)
T6920 17690:794 JLINK_ReadReg(FPS0)  returns 0x00000000 (0000ms, 1246432ms total)
T6920 17690:794 JLINK_ReadReg(FPS1)  returns 0x00000000 (0000ms, 1246432ms total)
T6920 17690:794 JLINK_ReadReg(FPS2)  returns 0x00000000 (0000ms, 1246432ms total)
T6920 17690:794 JLINK_ReadReg(FPS3)  returns 0x00000000 (0000ms, 1246432ms total)
T6920 17690:794 JLINK_ReadReg(FPS4)  returns 0x00000000 (0000ms, 1246432ms total)
T6920 17690:794 JLINK_ReadReg(FPS5)  returns 0x00000000 (0000ms, 1246432ms total)
T6920 17690:794 JLINK_ReadReg(FPS6)  returns 0x00000000 (0000ms, 1246432ms total)
T6920 17690:794 JLINK_ReadReg(FPS7)  returns 0x00000000 (0000ms, 1246432ms total)
T6920 17690:794 JLINK_ReadReg(FPS8)  returns 0x00000000 (0000ms, 1246432ms total)
T6920 17690:794 JLINK_ReadReg(FPS9)  returns 0x00000000 (0000ms, 1246432ms total)
T6920 17690:794 JLINK_ReadReg(FPS10)  returns 0x00000000 (0000ms, 1246432ms total)
T6920 17690:794 JLINK_ReadReg(FPS11)  returns 0x00000000 (0000ms, 1246432ms total)
T6920 17690:794 JLINK_ReadReg(FPS12)  returns 0x00000000 (0000ms, 1246432ms total)
T6920 17690:794 JLINK_ReadReg(FPS13)  returns 0x00000000 (0000ms, 1246432ms total)
T6920 17690:794 JLINK_ReadReg(FPS14)  returns 0x00000000 (0000ms, 1246432ms total)
T6920 17690:794 JLINK_ReadReg(FPS15)  returns 0x00000000 (0000ms, 1246432ms total)
T6920 17690:794 JLINK_ReadReg(FPS16)  returns 0x00000000 (0000ms, 1246432ms total)
T6920 17690:794 JLINK_ReadReg(FPS17)  returns 0x00000000 (0000ms, 1246432ms total)
T6920 17690:794 JLINK_ReadReg(FPS18)  returns 0x00000000 (0000ms, 1246432ms total)
T6920 17690:794 JLINK_ReadReg(FPS19)  returns 0x00000000 (0000ms, 1246432ms total)
T6920 17690:794 JLINK_ReadReg(FPS20)  returns 0x00000000 (0000ms, 1246432ms total)
T6920 17690:794 JLINK_ReadReg(FPS21)  returns 0x00000000 (0000ms, 1246432ms total)
T6920 17690:794 JLINK_ReadReg(FPS22)  returns 0x00000000 (0000ms, 1246432ms total)
T6920 17690:794 JLINK_ReadReg(FPS23)  returns 0x00000000 (0000ms, 1246432ms total)
T6920 17690:794 JLINK_ReadReg(FPS24)  returns 0x00000000 (0000ms, 1246432ms total)
T6920 17690:794 JLINK_ReadReg(FPS25)  returns 0x00000000 (0000ms, 1246432ms total)
T6920 17690:794 JLINK_ReadReg(FPS26)  returns 0x00000000 (0000ms, 1246432ms total)
T6920 17690:794 JLINK_ReadReg(FPS27)  returns 0x00000000 (0000ms, 1246432ms total)
T6920 17690:794 JLINK_ReadReg(FPS28)  returns 0x00000000 (0000ms, 1246432ms total)
T6920 17690:794 JLINK_ReadReg(FPS29)  returns 0x00000000 (0000ms, 1246432ms total)
T6920 17690:794 JLINK_ReadReg(FPS30)  returns 0x00000000 (0000ms, 1246432ms total)
T6920 17690:794 JLINK_ReadReg(FPS31)  returns 0x00000000 (0000ms, 1246432ms total)
T2A48 17690:833 JLINK_ReadMemEx(0x00000000, 0x0001 Bytes, ..., Flags = 0x02000000) -- CPU_ReadMem(4 bytes @ 0x00000004) -- CPU_ReadMem(64 bytes @ 0x08000000) -- Updating C cache (64 bytes @ 0x08000000) -- Read from C cache (1 bytes @ 0x08000000) - Data: 60  returns 0x01 (0003ms, 1246435ms total)
T2A48 17690:847 JLINK_ReadMemEx(0x0800AAE4, 0x003C Bytes, ..., Flags = 0x02000000) -- CPU_ReadMem(128 bytes @ 0x0800AAC0) -- Updating C cache (128 bytes @ 0x0800AAC0) -- Read from C cache (60 bytes @ 0x0800AAE4) - Data: F0 F0 45 43 0C 48 00 68 4F F4 7A 71 B1 FB F0 F0 ...  returns 0x3C (0002ms, 1246437ms total)
T2A48 17690:849 JLINK_ReadMemEx(0x0800AB28, 0x003C Bytes, ..., Flags = 0x02000000) -- CPU_ReadMem(64 bytes @ 0x0800AB40) -- Updating C cache (64 bytes @ 0x0800AB40) -- Read from C cache (60 bytes @ 0x0800AB28) - Data: 2D E9 F0 41 04 46 0E 46 01 20 2A 49 09 68 08 70 ...  returns 0x3C (0002ms, 1246439ms total)
T2A48 17690:851 JLINK_ReadMemEx(0x0800AB64, 0x003C Bytes, ..., Flags = 0x02000000) -- CPU_ReadMem(64 bytes @ 0x0800AB80) -- Updating C cache (64 bytes @ 0x0800AB80) -- Read from C cache (60 bytes @ 0x0800AB64) - Data: 09 68 48 70 01 20 1C 49 09 68 88 70 1D E0 04 F1 ...  returns 0x3C (0001ms, 1246440ms total)
T2A48 17690:852 JLINK_ReadMemEx(0x0800ABA0, 0x003C Bytes, ..., Flags = 0x02000000) -- CPU_ReadMem(64 bytes @ 0x0800ABC0) -- Updating C cache (64 bytes @ 0x0800ABC0) -- Read from C cache (60 bytes @ 0x0800ABA0) - Data: 09 68 08 70 04 20 0D 49 09 68 48 70 00 BF 00 BF ...  returns 0x3C (0001ms, 1246441ms total)
T2A48 17690:853 JLINK_ReadMemEx(0x0800ABE2, 0x0002 Bytes, ..., Flags = 0x02000000) -- Read from C cache (2 bytes @ 0x0800ABE2) - Data: 00 20  returns 0x02 (0000ms, 1246441ms total)
T2A48 17690:853 JLINK_ReadMemEx(0x0800ABE4, 0x001C Bytes, ..., Flags = 0x02000000) -- Read from C cache (28 bytes @ 0x0800ABE4) - Data: 08 B5 A8 20 FF F7 66 FF 4F F4 A0 60 F8 F7 38 FB ...  returns 0x1C (0000ms, 1246441ms total)
T2A48 17690:853 JLINK_ReadMemEx(0x0800AC00, 0x0020 Bytes, ..., Flags = 0x02000000) -- CPU_ReadMem(64 bytes @ 0x0800AC00) -- Updating C cache (64 bytes @ 0x0800AC00) -- Read from C cache (32 bytes @ 0x0800AC00) - Data: F7 F7 0C FA F7 F7 1A FC F7 F7 8C FA F7 F7 92 FB ...  returns 0x20 (0002ms, 1246443ms total)
T6920 17691:507 JLINK_ReadMemEx(0x0800ABE4, 0x0002 Bytes, ..., Flags = 0x02000000) -- Read from C cache (2 bytes @ 0x0800ABE4) - Data: 08 B5  returns 0x02 (0000ms, 1246443ms total)
T6920 17691:507 JLINK_Go() -- CPU_ReadMem(4 bytes @ 0xE0001000) -- CPU_WriteMem(4 bytes @ 0xE0002008) (0003ms, 1246446ms total)
T6920 17691:611 JLINK_IsHalted()  returns FALSE (0000ms, 1246446ms total)
T6920 17691:712 JLINK_IsHalted()  returns FALSE (0000ms, 1246446ms total)
T6920 17691:813 JLINK_IsHalted()  returns FALSE (0000ms, 1246446ms total)
T6920 17691:914 JLINK_IsHalted()  returns FALSE (0000ms, 1246446ms total)
T6920 17692:016 JLINK_IsHalted()  returns FALSE (0000ms, 1246446ms total)
T6920 17692:117 JLINK_ReadMemU32(0xE0001004, 0x0001 Items, ...) -- CPU_ReadMem(4 bytes @ 0xE0001004) - Data: 7A A2 13 06  returns 1 (0000ms, 1246446ms total)
T6920 17692:118 JLINK_IsHalted()  returns FALSE (0000ms, 1246446ms total)
T6920 17692:219 JLINK_IsHalted()  returns FALSE (0000ms, 1246446ms total)
T6920 17692:320 JLINK_IsHalted()  returns FALSE (0000ms, 1246446ms total)
T6920 17692:421 JLINK_IsHalted()  returns FALSE (0000ms, 1246446ms total)
T6920 17692:522 JLINK_IsHalted()  returns FALSE (0000ms, 1246446ms total)
T6920 17692:623 JLINK_IsHalted()  returns FALSE (0000ms, 1246446ms total)
T6920 17692:724 JLINK_ReadMemU32(0xE0001004, 0x0001 Items, ...) - Data: 7A A2 13 06  returns 1 (0000ms, 1246446ms total)
T6920 17692:725 JLINK_IsHalted()  returns FALSE (0001ms, 1246447ms total)
T6920 17692:826 JLINK_IsHalted()  returns FALSE (0000ms, 1246446ms total)
T6920 17692:927 JLINK_IsHalted()  returns FALSE (0000ms, 1246446ms total)
T6920 17693:028 JLINK_IsHalted()  returns FALSE (0000ms, 1246446ms total)
T6920 17693:129 JLINK_IsHalted()  returns FALSE (0000ms, 1246446ms total)
T6920 17693:230 JLINK_IsHalted()  returns FALSE (0000ms, 1246446ms total)
T6920 17693:331 JLINK_ReadMemU32(0xE0001004, 0x0001 Items, ...) - Data: 7A A2 13 06  returns 1 (0000ms, 1246446ms total)
T6920 17693:331 JLINK_IsHalted()  returns FALSE (0001ms, 1246447ms total)
T6920 17693:433 JLINK_IsHalted()  returns FALSE (0000ms, 1246446ms total)
T6920 17693:534 JLINK_IsHalted()  returns FALSE (0000ms, 1246446ms total)
T6920 17693:635 JLINK_IsHalted()  returns FALSE (0000ms, 1246446ms total)
T6920 17693:736 JLINK_IsHalted()  returns FALSE (0000ms, 1246446ms total)
T6920 17693:837 JLINK_ReadMemU32(0xE0001004, 0x0001 Items, ...) - Data: 7A A2 13 06  returns 1 (0000ms, 1246446ms total)
T6920 17693:837 JLINK_IsHalted()  returns FALSE (0000ms, 1246446ms total)
T6920 17693:938 JLINK_IsHalted()  returns FALSE (0000ms, 1246446ms total)
T6920 17694:039 JLINK_IsHalted()  returns FALSE (0000ms, 1246446ms total)
T6920 17694:140 JLINK_IsHalted()  returns FALSE (0000ms, 1246446ms total)
T6920 17694:241 JLINK_IsHalted()  returns FALSE (0000ms, 1246446ms total)
T6920 17694:342 JLINK_IsHalted()  returns FALSE (0000ms, 1246446ms total)
T6920 17694:443 JLINK_ReadMemU32(0xE0001004, 0x0001 Items, ...) - Data: 7A A2 13 06  returns 1 (0000ms, 1246446ms total)
T6920 17694:443 JLINK_IsHalted()  returns FALSE (0001ms, 1246447ms total)
T6920 17694:545 JLINK_IsHalted()  returns FALSE (0000ms, 1246446ms total)
T6920 17694:646 JLINK_IsHalted()  returns FALSE (0000ms, 1246446ms total)
T6920 17694:747 JLINK_IsHalted()  returns FALSE (0000ms, 1246446ms total)
T6920 17694:849 JLINK_IsHalted()  returns FALSE (0000ms, 1246446ms total)
T6920 17694:950 JLINK_IsHalted()  returns FALSE (0000ms, 1246446ms total)
T6920 17695:051 JLINK_ReadMemU32(0xE0001004, 0x0001 Items, ...) - Data: 7A A2 13 06  returns 1 (0000ms, 1246446ms total)
T6920 17695:051 JLINK_IsHalted()  returns FALSE (0001ms, 1246447ms total)
T6920 17695:152 JLINK_IsHalted()  returns FALSE (0000ms, 1246446ms total)
T6920 17695:253 JLINK_IsHalted()  returns FALSE (0000ms, 1246446ms total)
T6920 17695:354 JLINK_IsHalted()  returns FALSE (0000ms, 1246446ms total)
T6920 17695:455 JLINK_IsHalted()  returns FALSE (0000ms, 1246446ms total)
T6920 17695:556 JLINK_ReadMemU32(0xE0001004, 0x0001 Items, ...) - Data: 7A A2 13 06  returns 1 (0000ms, 1246446ms total)
T6920 17695:556 JLINK_IsHalted()  returns FALSE (0001ms, 1246447ms total)
T6920 17695:658 JLINK_IsHalted()  returns FALSE (0000ms, 1246446ms total)
T6920 17695:759 JLINK_IsHalted()  returns FALSE (0000ms, 1246446ms total)
T6920 17695:860 JLINK_IsHalted()  returns FALSE (0000ms, 1246446ms total)
T6920 17695:961 JLINK_IsHalted()  returns FALSE (0001ms, 1246447ms total)
T6920 17696:063 JLINK_IsHalted()  returns FALSE (0000ms, 1246446ms total)
T6920 17696:164 JLINK_ReadMemU32(0xE0001004, 0x0001 Items, ...) - Data: 7A A2 13 06  returns 1 (0000ms, 1246446ms total)
T6920 17696:165 JLINK_IsHalted()  returns FALSE (0001ms, 1246447ms total)
T6920 17696:268 JLINK_IsHalted()  returns FALSE (0000ms, 1246446ms total)
T6920 17696:369 JLINK_IsHalted()  returns FALSE (0001ms, 1246447ms total)
T6920 17696:470 JLINK_IsHalted()  returns FALSE (0001ms, 1246447ms total)
T6920 17696:571 JLINK_IsHalted()  returns FALSE (0001ms, 1246447ms total)
T6920 17696:672 JLINK_IsHalted()  returns FALSE (0001ms, 1246447ms total)
T6920 17696:774 JLINK_ReadMemU32(0xE0001004, 0x0001 Items, ...) - Data: 7A A2 13 06  returns 1 (0000ms, 1246446ms total)
T6920 17696:775 JLINK_IsHalted()  returns FALSE (0000ms, 1246446ms total)
T2A48 17696:850 JLINK_SetBPEx(Addr = 0x08000C30, Type = 0xFFFFFFF2) -- CPU is running -- CPU is running -- CPU_WriteMem(4 bytes @ 0xE0002000) -- CPU is running -- CPU_WriteMem(4 bytes @ 0xE0002008)  returns 0x00000002 (0001ms, 1246447ms total)
T6920 17696:876 JLINK_IsHalted()  returns FALSE (0001ms, 1246448ms total)
T6920 17696:977 JLINK_IsHalted()  returns FALSE (0000ms, 1246447ms total)
T6920 17697:078 JLINK_IsHalted()  returns FALSE (0000ms, 1246447ms total)
T6920 17697:179 JLINK_IsHalted()  returns FALSE (0000ms, 1246447ms total)
T6920 17697:280 JLINK_IsHalted()  returns FALSE (0000ms, 1246447ms total)
T6920 17697:381 JLINK_ReadMemU32(0xE0001004, 0x0001 Items, ...) - Data: 7A A2 13 06  returns 1 (0000ms, 1246447ms total)
T6920 17697:381 JLINK_IsHalted()  returns FALSE (0001ms, 1246448ms total)
T6920 17697:483 JLINK_IsHalted()  returns FALSE (0000ms, 1246447ms total)
T6920 17697:584 JLINK_IsHalted()  returns FALSE (0000ms, 1246447ms total)
T6920 17697:686 JLINK_IsHalted()  returns FALSE (0000ms, 1246447ms total)
T6920 17697:787 JLINK_IsHalted()  returns FALSE (0000ms, 1246447ms total)
T6920 17697:888 JLINK_IsHalted()  returns FALSE (0001ms, 1246448ms total)
T2A48 17697:955 JLINK_ClrBPEx(BPHandle = 0x00000002) -- CPU is running -- CPU is running -- CPU_WriteMem(4 bytes @ 0xE0002008) -- CPU is running -- CPU_WriteMem(4 bytes @ 0xE000200C) -- CPU is running -- CPU_WriteMem(4 bytes @ 0xE0002010) -- CPU is running -- CPU_WriteMem(4 bytes @ 0xE0002014) -- CPU is running -- CPU_WriteMem(4 bytes @ 0xE0002018) -- CPU is running -- CPU_WriteMem(4 bytes @ 0xE000201C)  returns 0x00 (0006ms, 1246453ms total)
T6920 17697:989 JLINK_ReadMemU32(0xE0001004, 0x0001 Items, ...) - Data: 7A A2 13 06  returns 1 (0000ms, 1246453ms total)
T6920 17697:989 JLINK_IsHalted()  returns FALSE (0001ms, 1246454ms total)
T6920 17698:091 JLINK_IsHalted()  returns FALSE (0000ms, 1246453ms total)
T6920 17698:192 JLINK_IsHalted()  returns FALSE (0000ms, 1246453ms total)
T6920 17698:293 JLINK_IsHalted()  returns FALSE (0000ms, 1246453ms total)
T6920 17698:394 JLINK_IsHalted()  returns FALSE (0001ms, 1246454ms total)
T6920 17698:495 JLINK_ReadMemU32(0xE0001004, 0x0001 Items, ...) - Data: 7A A2 13 06  returns 1 (0000ms, 1246453ms total)
T6920 17698:497 JLINK_IsHalted()  returns FALSE (0001ms, 1246454ms total)
T6920 17698:599 JLINK_IsHalted()  returns FALSE (0001ms, 1246454ms total)
T6920 17698:700 JLINK_IsHalted()  returns FALSE (0000ms, 1246453ms total)
T6920 17698:801 JLINK_IsHalted()  returns FALSE (0000ms, 1246453ms total)
T6920 17698:902 JLINK_IsHalted()  returns FALSE (0000ms, 1246453ms total)
T6920 17699:004 JLINK_IsHalted()  returns FALSE (0000ms, 1246453ms total)
T6920 17699:105 JLINK_ReadMemU32(0xE0001004, 0x0001 Items, ...) - Data: 7A A2 13 06  returns 1 (0000ms, 1246453ms total)
T6920 17699:105 JLINK_IsHalted()  returns FALSE (0001ms, 1246454ms total)
T6920 17699:207 JLINK_IsHalted()  returns FALSE (0000ms, 1246453ms total)
T2A48 17699:303 JLINK_ReadMemEx(0x08000C30, 0x0002 Bytes, ..., Flags = 0x02000000) -- CPU_ReadMem(2 bytes @ 0x08000C30) - Data: 08 21  returns 0x02 (0001ms, 1246454ms total)
T2A48 17699:304 JLINK_ReadMemEx(0x08000C32, 0x0002 Bytes, ..., Flags = 0x02000000) -- CPU_ReadMem(2 bytes @ 0x08000C32) - Data: 01 20  returns 0x02 (0001ms, 1246455ms total)
T2A48 17699:305 JLINK_ReadMemEx(0x08000C34, 0x0002 Bytes, ..., Flags = 0x02000000) -- CPU_ReadMem(2 bytes @ 0x08000C34) - Data: 09 F0  returns 0x02 (0001ms, 1246456ms total)
T2A48 17699:306 JLINK_ReadMemEx(0x08000C36, 0x0002 Bytes, ..., Flags = 0x02000000) -- CPU_ReadMem(2 bytes @ 0x08000C36) - Data: 78 FF  returns 0x02 (0001ms, 1246457ms total)
T2A48 17699:307 JLINK_ReadMemEx(0x08000C38, 0x0002 Bytes, ..., Flags = 0x02000000) -- CPU_ReadMem(2 bytes @ 0x08000C38) - Data: 1D E0  returns 0x02 (0000ms, 1246457ms total)
T2A48 17699:307 JLINK_ReadMemEx(0x08000C3A, 0x0002 Bytes, ..., Flags = 0x02000000) -- CPU_ReadMem(2 bytes @ 0x08000C3A) - Data: 08 21  returns 0x02 (0001ms, 1246458ms total)
T6920 17699:308 JLINK_IsHalted()  returns FALSE (0001ms, 1246459ms total)
T6920 17699:410 JLINK_IsHalted()  returns FALSE (0000ms, 1246458ms total)
T6920 17699:511 JLINK_IsHalted()  returns FALSE (0000ms, 1246458ms total)
T6920 17699:612 JLINK_IsHalted()  returns FALSE (0001ms, 1246459ms total)
T6920 17699:714 JLINK_ReadMemU32(0xE0001004, 0x0001 Items, ...) - Data: 7A A2 13 06  returns 1 (0000ms, 1246458ms total)
T6920 17699:714 JLINK_IsHalted()  returns FALSE (0001ms, 1246459ms total)
T6920 17699:816 JLINK_IsHalted()  returns FALSE (0001ms, 1246459ms total)
T6920 17699:918 JLINK_IsHalted()  returns FALSE (0000ms, 1246458ms total)
T6920 17700:019 JLINK_IsHalted()  returns FALSE (0000ms, 1246458ms total)
T6920 17700:120 JLINK_IsHalted()  returns FALSE (0000ms, 1246458ms total)
T6920 17700:221 JLINK_IsHalted()  returns FALSE (0000ms, 1246458ms total)
T6920 17700:322 JLINK_ReadMemU32(0xE0001004, 0x0001 Items, ...) - Data: 7A A2 13 06  returns 1 (0000ms, 1246458ms total)
T6920 17700:323 JLINK_IsHalted()  returns FALSE (0001ms, 1246459ms total)
T6920 17700:426 JLINK_IsHalted()  returns FALSE (0000ms, 1246458ms total)
T6920 17700:527 JLINK_IsHalted()  returns FALSE (0000ms, 1246458ms total)
T6920 17700:628 JLINK_IsHalted()  returns FALSE (0001ms, 1246459ms total)
T6920 17700:730 JLINK_IsHalted()  returns FALSE (0000ms, 1246458ms total)
T6920 17700:831 JLINK_IsHalted()  returns FALSE (0000ms, 1246458ms total)
T6920 17700:932 JLINK_ReadMemU32(0xE0001004, 0x0001 Items, ...) - Data: 7A A2 13 06  returns 1 (0000ms, 1246458ms total)
T6920 17700:932 JLINK_IsHalted()  returns FALSE (0001ms, 1246459ms total)
T6920 17701:034 JLINK_IsHalted()  returns FALSE (0000ms, 1246458ms total)
T6920 17701:135 JLINK_IsHalted()  returns FALSE (0000ms, 1246458ms total)
T6920 17701:236 JLINK_IsHalted()  returns FALSE (0000ms, 1246458ms total)
T6920 17701:337 JLINK_IsHalted()  returns FALSE (0001ms, 1246459ms total)
T6920 17701:438 JLINK_IsHalted()  returns FALSE (0001ms, 1246459ms total)
T6920 17701:539 JLINK_ReadMemU32(0xE0001004, 0x0001 Items, ...) - Data: 7A A2 13 06  returns 1 (0000ms, 1246458ms total)
T6920 17701:539 JLINK_IsHalted()  returns FALSE (0001ms, 1246459ms total)
T6920 17701:641 JLINK_IsHalted()  returns FALSE (0001ms, 1246459ms total)
T6920 17701:743 JLINK_IsHalted()  returns FALSE (0000ms, 1246458ms total)
T6920 17701:845 JLINK_IsHalted()  returns FALSE (0001ms, 1246459ms total)
T6920 17701:947 JLINK_IsHalted()  returns FALSE (0000ms, 1246458ms total)
T6920 17702:048 JLINK_IsHalted()  returns FALSE (0001ms, 1246459ms total)
T6920 17702:150 JLINK_ReadMemU32(0xE0001004, 0x0001 Items, ...) - Data: 7A A2 13 06  returns 1 (0000ms, 1246458ms total)
T6920 17702:151 JLINK_IsHalted()  returns FALSE (0001ms, 1246459ms total)
T2A48 17702:212 JLINK_SetBPEx(Addr = 0x08000BA6, Type = 0xFFFFFFF2) -- CPU is running -- CPU is running -- CPU_WriteMem(4 bytes @ 0xE0002000) -- CPU is running -- CPU_WriteMem(4 bytes @ 0xE0002008)  returns 0x00000003 (0001ms, 1246459ms total)
T6920 17702:253 JLINK_IsHalted()  returns TRUE (0005ms, 1246464ms total)
T6920 17702:258 JLINK_Halt()  returns 0x00 (0000ms, 1246459ms total)
T6920 17702:258 JLINK_IsHalted()  returns TRUE (0000ms, 1246459ms total)
T6920 17702:258 JLINK_IsHalted()  returns TRUE (0000ms, 1246459ms total)
T6920 17702:258 JLINK_IsHalted()  returns TRUE (0000ms, 1246459ms total)
T6920 17702:258 JLINK_ReadReg(R15 (PC))  returns 0x08000BA6 (0000ms, 1246459ms total)
T6920 17702:258 JLINK_ReadReg(XPSR)  returns 0x61000037 (0000ms, 1246459ms total)
T6920 17702:258 JLINK_ClrBPEx(BPHandle = 0x00000003)  returns 0x00 (0000ms, 1246459ms total)
T6920 17702:258 JLINK_ReadMemU32(0xE000ED30, 0x0001 Items, ...) -- CPU_ReadMem(4 bytes @ 0xE000ED30) - Data: 02 00 00 00  returns 1 (0001ms, 1246460ms total)
T6920 17702:259 JLINK_ReadMemU32(0xE0001028, 0x0001 Items, ...) -- CPU_ReadMem(4 bytes @ 0xE0001028) - Data: 00 00 00 00  returns 1 (0000ms, 1246460ms total)
T6920 17702:259 JLINK_ReadMemU32(0xE0001038, 0x0001 Items, ...) -- CPU_ReadMem(4 bytes @ 0xE0001038) - Data: 00 02 00 00  returns 1 (0001ms, 1246461ms total)
T6920 17702:260 JLINK_ReadMemU32(0xE0001048, 0x0001 Items, ...) -- CPU_ReadMem(4 bytes @ 0xE0001048) - Data: 00 00 00 00  returns 1 (0001ms, 1246462ms total)
T6920 17702:261 JLINK_ReadMemU32(0xE0001058, 0x0001 Items, ...) -- CPU_ReadMem(4 bytes @ 0xE0001058) - Data: 00 00 00 00  returns 1 (0001ms, 1246463ms total)
T6920 17702:262 JLINK_ReadReg(R0)  returns 0x000000D2 (0000ms, 1246463ms total)
T6920 17702:262 JLINK_ReadReg(R1)  returns 0x20006454 (0000ms, 1246463ms total)
T6920 17702:262 JLINK_ReadReg(R2)  returns 0x20006454 (0000ms, 1246463ms total)
T6920 17702:262 JLINK_ReadReg(R3)  returns 0x00000006 (0000ms, 1246463ms total)
T6920 17702:262 JLINK_ReadReg(R4)  returns 0x0000D215 (0000ms, 1246463ms total)
T6920 17702:262 JLINK_ReadReg(R5)  returns 0x00000015 (0000ms, 1246463ms total)
T6920 17702:262 JLINK_ReadReg(R6)  returns 0x000000D2 (0000ms, 1246463ms total)
T6920 17702:262 JLINK_ReadReg(R7)  returns 0x07070707 (0000ms, 1246463ms total)
T6920 17702:262 JLINK_ReadReg(R8)  returns 0x08080808 (0000ms, 1246463ms total)
T6920 17702:262 JLINK_ReadReg(R9)  returns 0x09090909 (0000ms, 1246463ms total)
T6920 17702:262 JLINK_ReadReg(R10)  returns 0x10101010 (0000ms, 1246463ms total)
T6920 17702:262 JLINK_ReadReg(R11)  returns 0x11111111 (0000ms, 1246463ms total)
T6920 17702:262 JLINK_ReadReg(R12)  returns 0x12121212 (0000ms, 1246463ms total)
T6920 17702:262 JLINK_ReadReg(R13 (SP))  returns 0x200084A8 (0000ms, 1246463ms total)
T6920 17702:262 JLINK_ReadReg(R14)  returns 0x08000B7D (0000ms, 1246463ms total)
T6920 17702:262 JLINK_ReadReg(R15 (PC))  returns 0x08000BA6 (0000ms, 1246463ms total)
T6920 17702:262 JLINK_ReadReg(XPSR)  returns 0x61000037 (0000ms, 1246463ms total)
T6920 17702:262 JLINK_ReadReg(MSP)  returns 0x200084A8 (0000ms, 1246463ms total)
T6920 17702:262 JLINK_ReadReg(PSP)  returns 0x20007F80 (0000ms, 1246463ms total)
T6920 17702:262 JLINK_ReadReg(CFBP)  returns 0x00000000 (0000ms, 1246463ms total)
T6920 17702:262 JLINK_ReadReg(FPSCR)  returns 0x00000000 (0008ms, 1246471ms total)
T6920 17702:270 JLINK_ReadReg(FPS0)  returns 0x00000000 (0000ms, 1246471ms total)
T6920 17702:270 JLINK_ReadReg(FPS1)  returns 0x00000001 (0000ms, 1246471ms total)
T6920 17702:270 JLINK_ReadReg(FPS2)  returns 0x00000002 (0000ms, 1246471ms total)
T6920 17702:270 JLINK_ReadReg(FPS3)  returns 0x00000003 (0000ms, 1246471ms total)
T6920 17702:270 JLINK_ReadReg(FPS4)  returns 0x00000004 (0000ms, 1246471ms total)
T6920 17702:270 JLINK_ReadReg(FPS5)  returns 0x00000005 (0000ms, 1246471ms total)
T6920 17702:270 JLINK_ReadReg(FPS6)  returns 0x00000006 (0000ms, 1246471ms total)
T6920 17702:270 JLINK_ReadReg(FPS7)  returns 0x00000007 (0000ms, 1246471ms total)
T6920 17702:270 JLINK_ReadReg(FPS8)  returns 0x00000008 (0000ms, 1246471ms total)
T6920 17702:270 JLINK_ReadReg(FPS9)  returns 0x00000009 (0000ms, 1246471ms total)
T6920 17702:270 JLINK_ReadReg(FPS10)  returns 0x00000010 (0000ms, 1246471ms total)
T6920 17702:270 JLINK_ReadReg(FPS11)  returns 0x00000011 (0000ms, 1246471ms total)
T6920 17702:270 JLINK_ReadReg(FPS12)  returns 0x00000012 (0000ms, 1246471ms total)
T6920 17702:270 JLINK_ReadReg(FPS13)  returns 0x00000013 (0000ms, 1246471ms total)
T6920 17702:270 JLINK_ReadReg(FPS14)  returns 0x00000014 (0000ms, 1246471ms total)
T6920 17702:270 JLINK_ReadReg(FPS15)  returns 0x00000015 (0000ms, 1246471ms total)
T6920 17702:270 JLINK_ReadReg(FPS16)  returns 0x00000016 (0000ms, 1246471ms total)
T6920 17702:270 JLINK_ReadReg(FPS17)  returns 0x00000017 (0000ms, 1246471ms total)
T6920 17702:270 JLINK_ReadReg(FPS18)  returns 0x00000018 (0000ms, 1246471ms total)
T6920 17702:270 JLINK_ReadReg(FPS19)  returns 0x00000019 (0000ms, 1246471ms total)
T6920 17702:270 JLINK_ReadReg(FPS20)  returns 0x00000020 (0000ms, 1246471ms total)
T6920 17702:270 JLINK_ReadReg(FPS21)  returns 0x00000021 (0000ms, 1246471ms total)
T6920 17702:270 JLINK_ReadReg(FPS22)  returns 0x00000022 (0000ms, 1246471ms total)
T6920 17702:270 JLINK_ReadReg(FPS23)  returns 0x00000023 (0000ms, 1246471ms total)
T6920 17702:270 JLINK_ReadReg(FPS24)  returns 0x00000024 (0000ms, 1246471ms total)
T6920 17702:270 JLINK_ReadReg(FPS25)  returns 0x00000025 (0000ms, 1246471ms total)
T6920 17702:270 JLINK_ReadReg(FPS26)  returns 0x00000026 (0000ms, 1246471ms total)
T6920 17702:270 JLINK_ReadReg(FPS27)  returns 0x00000027 (0000ms, 1246471ms total)
T6920 17702:270 JLINK_ReadReg(FPS28)  returns 0x00000028 (0000ms, 1246471ms total)
T6920 17702:270 JLINK_ReadReg(FPS29)  returns 0x00000029 (0000ms, 1246471ms total)
T6920 17702:270 JLINK_ReadReg(FPS30)  returns 0x00000030 (0000ms, 1246471ms total)
T6920 17702:270 JLINK_ReadReg(FPS31)  returns 0x00000031 (0000ms, 1246471ms total)
T2A48 17702:271 JLINK_ReadMemEx(0x200084B4, 0x0004 Bytes, ..., Flags = 0x02000000) -- CPU_ReadMem(64 bytes @ 0x20008480) -- Updating C cache (64 bytes @ 0x20008480) -- Read from C cache (4 bytes @ 0x200084B4) - Data: CD 98 00 08  returns 0x04 (0001ms, 1246472ms total)
T2A48 17702:272 JLINK_ReadMemEx(0x200084A8, 0x0004 Bytes, ..., Flags = 0x02000000) -- Read from C cache (4 bytes @ 0x200084A8) - Data: 00 00 00 00  returns 0x04 (0000ms, 1246472ms total)
T2A48 17702:272 JLINK_ReadMemEx(0x200084AC, 0x0004 Bytes, ..., Flags = 0x02000000) -- Read from C cache (4 bytes @ 0x200084AC) - Data: 05 05 05 05  returns 0x04 (0000ms, 1246472ms total)
T2A48 17702:272 JLINK_ReadMemEx(0x200084B0, 0x0004 Bytes, ..., Flags = 0x02000000) -- Read from C cache (4 bytes @ 0x200084B0) - Data: 06 06 06 06  returns 0x04 (0000ms, 1246472ms total)
T2A48 17702:272 JLINK_ReadMemEx(0x200084BC, 0x0004 Bytes, ..., Flags = 0x02000000) -- Read from C cache (4 bytes @ 0x200084BC) - Data: ED FF FF FF  returns 0x04 (0000ms, 1246472ms total)
T2A48 17702:272 JLINK_ReadMemEx(0x20007F98, 0x0004 Bytes, ..., Flags = 0x02000000) -- CPU_ReadMem(64 bytes @ 0x20007F80) -- Updating C cache (64 bytes @ 0x20007F80) -- Read from C cache (4 bytes @ 0x20007F98) - Data: 1A 4E 00 08  returns 0x04 (0002ms, 1246474ms total)
T2A48 17702:274 JLINK_ReadMemEx(0x20007F9C, 0x0004 Bytes, ..., Flags = 0x02000000) -- Read from C cache (4 bytes @ 0x20007F9C) - Data: 00 00 00 01  returns 0x04 (0000ms, 1246474ms total)
T2A48 17702:274 JLINK_ReadMemEx(0x20007F94, 0x0004 Bytes, ..., Flags = 0x02000000) -- Read from C cache (4 bytes @ 0x20007F94) - Data: 1B 4E 00 08  returns 0x04 (0000ms, 1246474ms total)
T2A48 17702:274 JLINK_ReadMemEx(0xE000ED28, 0x0004 Bytes, ..., Flags = 0x02000000) -- CPU_ReadMem(4 bytes @ 0xE000ED28) - Data: 00 00 00 00  returns 0x04 (0001ms, 1246475ms total)
T2A48 17702:276 JLINK_ReadMemEx(0x20007FE4, 0x0004 Bytes, ..., Flags = 0x02000000) -- CPU_ReadMem(64 bytes @ 0x20007FC0) -- Updating C cache (64 bytes @ 0x20007FC0) -- Read from C cache (4 bytes @ 0x20007FE4) - Data: 23 4E 00 08  returns 0x04 (0001ms, 1246476ms total)
T2A48 17702:277 JLINK_ReadMemEx(0x20007FE8, 0x0004 Bytes, ..., Flags = 0x02000000) -- Read from C cache (4 bytes @ 0x20007FE8) - Data: 00 00 00 00  returns 0x04 (0000ms, 1246476ms total)
T2A48 17702:287 JLINK_ReadMemEx(0x08000B82, 0x0002 Bytes, ..., Flags = 0x02000000) -- CPU_ReadMem(64 bytes @ 0x08000B80) -- Updating C cache (64 bytes @ 0x08000B80) -- Read from C cache (2 bytes @ 0x08000B82) - Data: 3F 48  returns 0x02 (0001ms, 1246477ms total)
T2A48 17702:288 JLINK_ReadMemEx(0x08000B84, 0x003C Bytes, ..., Flags = 0x02000000) -- Read from C cache (60 bytes @ 0x08000B84) - Data: 00 68 00 88 80 1E 3E 49 09 68 08 5C A8 42 39 D1 ...  returns 0x3C (0000ms, 1246477ms total)
T6920 17706:225 JLINK_ReadMemEx(0x08000BA6, 0x0002 Bytes, ..., Flags = 0x02000000) -- Read from C cache (2 bytes @ 0x08000BA6) - Data: 37 48  returns 0x02 (0000ms, 1246477ms total)
T6920 17706:225 JLINK_Step() -- Read from C cache (2 bytes @ 0x08000BA6) -- CPU_ReadMem(4 bytes @ 0xE000ED18) -- CPU_WriteMem(4 bytes @ 0xE000ED18) -- CPU_ReadMem(4 bytes @ 0xE000ED18) -- CPU_WriteMem(4 bytes @ 0xE000ED18) -- CPU_ReadMem(64 bytes @ 0x08000C80) -- Updating C cache (64 bytes @ 0x08000C80) -- Read from C cache (4 bytes @ 0x08000C84) -- Simulated  returns 0x00 (0006ms, 1246483ms total)
T6920 17706:231 JLINK_ReadReg(R15 (PC))  returns 0x08000BA8 (0000ms, 1246483ms total)
T6920 17706:231 JLINK_ReadReg(XPSR)  returns 0x61000037 (0000ms, 1246483ms total)
T6920 17706:231 JLINK_Step() -- Read from C cache (2 bytes @ 0x08000BA8) -- CPU_ReadMem(64 bytes @ 0x20000080) -- Updating C cache (64 bytes @ 0x20000080) -- Read from C cache (4 bytes @ 0x20000084) -- Simulated  returns 0x00 (0001ms, 1246484ms total)
T6920 17706:232 JLINK_ReadReg(R15 (PC))  returns 0x08000BAA (0000ms, 1246484ms total)
T6920 17706:232 JLINK_ReadReg(XPSR)  returns 0x61000037 (0000ms, 1246484ms total)
T6920 17706:232 JLINK_Step() -- Read from C cache (2 bytes @ 0x08000BAA) -- CPU_ReadMem(64 bytes @ 0x20006440) -- Updating C cache (64 bytes @ 0x20006440) -- Read from C cache (1 bytes @ 0x20006455) -- Simulated  returns 0x00 (0002ms, 1246486ms total)
T6920 17706:234 JLINK_ReadReg(R15 (PC))  returns 0x08000BAC (0000ms, 1246486ms total)
T6920 17706:234 JLINK_ReadReg(XPSR)  returns 0x61000037 (0000ms, 1246486ms total)
T6920 17706:234 JLINK_ReadMemEx(0x08000BAC, 0x003C Bytes, ..., Flags = 0x02000000) -- CPU_ReadMem(64 bytes @ 0x08000BC0) -- Updating C cache (64 bytes @ 0x08000BC0) -- Read from C cache (60 bytes @ 0x08000BAC) - Data: 04 28 17 D0 06 DC 01 28 0B D0 02 28 0C D0 03 28 ...  returns 0x3C (0001ms, 1246487ms total)
T6920 17706:235 JLINK_ReadMemEx(0x08000BAC, 0x0002 Bytes, ..., Flags = 0x02000000) -- Read from C cache (2 bytes @ 0x08000BAC) - Data: 04 28  returns 0x02 (0000ms, 1246487ms total)
T6920 17706:235 JLINK_ReadMemEx(0x08000BAE, 0x0002 Bytes, ..., Flags = 0x02000000) -- Read from C cache (2 bytes @ 0x08000BAE) - Data: 17 D0  returns 0x02 (0000ms, 1246487ms total)
T6920 17706:235 JLINK_Step() -- Read from C cache (2 bytes @ 0x08000BAC) -- Simulated  returns 0x00 (0000ms, 1246487ms total)
T6920 17706:235 JLINK_ReadReg(R15 (PC))  returns 0x08000BAE (0000ms, 1246487ms total)
T6920 17706:235 JLINK_ReadReg(XPSR)  returns 0x81000037 (0000ms, 1246487ms total)
T6920 17706:235 JLINK_ReadMemEx(0x08000BAE, 0x0002 Bytes, ..., Flags = 0x02000000) -- Read from C cache (2 bytes @ 0x08000BAE) - Data: 17 D0  returns 0x02 (0000ms, 1246487ms total)
T6920 17706:235 JLINK_ReadMemEx(0x08000BB0, 0x003C Bytes, ..., Flags = 0x02000000) -- Read from C cache (60 bytes @ 0x08000BB0) - Data: 06 DC 01 28 0B D0 02 28 0C D0 03 28 1C D1 0C E0 ...  returns 0x3C (0000ms, 1246487ms total)
T6920 17706:235 JLINK_ReadMemEx(0x08000BB0, 0x0002 Bytes, ..., Flags = 0x02000000) -- Read from C cache (2 bytes @ 0x08000BB0) - Data: 06 DC  returns 0x02 (0000ms, 1246487ms total)
T6920 17706:235 JLINK_Step() -- Read from C cache (2 bytes @ 0x08000BAE) -- Simulated  returns 0x00 (0000ms, 1246487ms total)
T6920 17706:235 JLINK_ReadReg(R15 (PC))  returns 0x08000BB0 (0000ms, 1246487ms total)
T6920 17706:235 JLINK_ReadReg(XPSR)  returns 0x81000037 (0000ms, 1246487ms total)
T6920 17706:235 JLINK_ReadMemEx(0x08000BB0, 0x003C Bytes, ..., Flags = 0x02000000) -- Read from C cache (60 bytes @ 0x08000BB0) - Data: 06 DC 01 28 0B D0 02 28 0C D0 03 28 1C D1 0C E0 ...  returns 0x3C (0000ms, 1246487ms total)
T6920 17706:235 JLINK_ReadMemEx(0x08000BB0, 0x0002 Bytes, ..., Flags = 0x02000000) -- Read from C cache (2 bytes @ 0x08000BB0) - Data: 06 DC  returns 0x02 (0000ms, 1246487ms total)
T6920 17706:235 JLINK_ReadMemEx(0x08000BB2, 0x0002 Bytes, ..., Flags = 0x02000000) -- Read from C cache (2 bytes @ 0x08000BB2) - Data: 01 28  returns 0x02 (0000ms, 1246487ms total)
T6920 17706:235 JLINK_Step() -- Read from C cache (2 bytes @ 0x08000BB0) -- Simulated  returns 0x00 (0000ms, 1246487ms total)
T6920 17706:236 JLINK_ReadReg(R15 (PC))  returns 0x08000BB2 (0000ms, 1246488ms total)
T6920 17706:236 JLINK_ReadReg(XPSR)  returns 0x81000037 (0000ms, 1246488ms total)
T6920 17706:236 JLINK_ReadMemEx(0x08000BB2, 0x0002 Bytes, ..., Flags = 0x02000000) -- Read from C cache (2 bytes @ 0x08000BB2) - Data: 01 28  returns 0x02 (0000ms, 1246488ms total)
